
T1670 000:000 SEGGER J-Link V4.96a Log File (0000ms, 0000ms total)
T1670 000:000 DLL Compiled: Jan 14 2015 09:32:38 (0000ms, 0000ms total)
T1670 000:000 Logging started @ 2019-08-19 15:42 (0000ms, 0000ms total)
T1670 000:000 JLINK_SetWarnOutHandler(...) (0000ms, 0000ms total)
T1670 000:000 JLINK_OpenEx(...)
Firmware: J-Link OB-STM32F072-CortexM compiled Mar  8 2020 11:15:54
Hardware: V1.00
Feature(s): GDB, RDI, FlashBP, FlashDL, JFlash, RDDI  returns O.K. (0264ms, 0264ms total)
T1670 000:264 JLINK_GetEmuCaps()  returns 0xB8EA5A33 (0000ms, 0264ms total)
T1670 000:264 JLINK_TIF_GetAvailable(...) (0000ms, 0264ms total)
T1670 000:264 JLINK_SetErrorOutHandler(...) (0000ms, 0264ms total)
T1670 000:264 JLINK_ExecCommand("ProjectFile = "C:\Users\PC\Desktop\¼Æ²½Æ÷B\USER\JLinkSettings.ini"", ...)  returns 0x00 (0002ms, 0266ms total)
T1670 000:269 JLINK_ExecCommand("Device = STM32F103C8", ...)Device "STM32F103C8" selected.  returns 0x00 (0004ms, 0270ms total)
T1670 000:273 JLINK_ExecCommand("DisableConnectionTimeout", ...)  returns 0x01 (0000ms, 0270ms total)
T1670 000:273 JLINK_GetHardwareVersion()  returns 0x2710 (0000ms, 0270ms total)
T1670 000:273 JLINK_GetDLLVersion()  returns 49601 (0000ms, 0270ms total)
T1670 000:273 JLINK_GetFirmwareString(...) (0000ms, 0270ms total)
T1670 000:286 JLINK_GetDLLVersion()  returns 49601 (0000ms, 0270ms total)
T1670 000:286 JLINK_GetCompileDateTime() (0000ms, 0270ms total)
T1670 000:289 JLINK_GetFirmwareString(...) (0000ms, 0270ms total)
T1670 000:292 JLINK_GetHardwareVersion()  returns 0x2710 (0000ms, 0270ms total)
T1670 000:301 JLINK_TIF_Select(JLINKARM_TIF_SWD)  returns 0x00 (0001ms, 0271ms total)
T1670 000:302 JLINK_SetSpeed(5000) (0000ms, 0271ms total)
T1670 000:302 JLINK_GetId() >0x108 TIF>Found SWD-DP with ID 0x1BA01477 >0x0D TIF> >0x28 TIF> >0x0D TIF> >0x28 TIF> >0x0D TIF> >0x21 TIF> >0x0D TIF> >0x28 TIF> >0x0D TIF> >0x28 TIF> >0x0D TIF> >0x28 TIF> >0x0D TIF> >0x21 TIF> >0x0D TIF> >0x21 TIF> >0x0D TIF> >0x28 TIF> >0x0D TIF> >0x21 TIF> >0x0D TIF> >0x21 TIF> >0x108 TIF>Found SWD-DP with ID 0x1BA01477 >0x0D TIF> >0x21 TIF> >0x0D TIF> >0x28 TIF> >0x0D TIF> >0x28 TIF> >0x0D TIF> >0x21 TIF> >0x0D TIF> >0x28 TIF> >0x0D TIF> >0x21 TIF> >0x0D TIF> >0x21 TIF>
 >0x0D TIF> >0x21 TIF> >0x0D TIF> >0x21 TIF> >0x0D TIF> >0x28 TIF> >0x0D TIF> >0x28 TIF> >0x0D TIF> >0x21 TIF> >0x0D TIF> >0x28 TIF> >0x0D TIF> >0x28 TIF> >0x0D TIF> >0x28 TIF> >0x0D TIF> >0x21 TIF> >0x0D TIF> >0x21 TIF> >0x0D TIF> >0x28 TIF> >0x0D TIF> >0x21 TIF> >0x0D TIF> >0x21 TIF>Found Cortex-M3 r1p1, Little endian. -- CPU_WriteMem(4 bytes @ 0xE0002000) -- CPU_ReadMem(4 bytes @ 0xE000EDF0) -- CPU_ReadMem(4 bytes @ 0xE0002000)FPUnit: 6 code (BP) slots and 2 literal slots
 -- CPU_ReadMem(4 bytes @ 0xE000EDFC) -- CPU_ReadMem(4 bytes @ 0xE0001000) -- CPU_WriteMem(4 bytes @ 0xE0001000) -- CPU_ReadMem(4 bytes @ 0xE000ED88) -- CPU_WriteMem(4 bytes @ 0xE000ED88) -- CPU_ReadMem(4 bytes @ 0xE000ED88) -- CPU_WriteMem(4 bytes @ 0xE000ED88) -- CPU_ReadMem(4 bytes @ 0xE00FF010)TPIU fitted. -- CPU_ReadMem(4 bytes @ 0xE00FF014) -- CPU_ReadMem(4 bytes @ 0xE00FF018) >0x0D TIF> >0x21 TIF>  returns 0x1BA01477 (0039ms, 0310ms total)
T1670 000:341 JLINK_GetDLLVersion()  returns 49601 (0000ms, 0310ms total)
T1670 000:341 JLINK_CORE_GetFound()  returns 0x30000FF (0000ms, 0310ms total)
T1670 000:341 JLINK_GetDebugInfo(0x100) -- Value=0xE00FF003  returns 0x00 (0000ms, 0310ms total)
T1670 000:343 JLINK_GetDebugInfo(0x100) -- Value=0xE00FF003  returns 0x00 (0000ms, 0310ms total)
T1670 000:343 JLINK_GetDebugInfo(0x101)  returns 0xFFFFFFFF (0000ms, 0310ms total)
T1670 000:343 JLINK_ReadMemEx(0xE0041FF0, 0x0010 Bytes, ..., AccessWidth = 33554436) -- CPU is running -- CPU_ReadMem(16 bytes @ 0xE0041FF0) - Data: 00 00 00 00 00 00 00 00 00 00 00 00 00 00 00 00  returns 0x10 (0001ms, 0311ms total)
T1670 000:344 JLINK_GetDebugInfo(0x102)  returns 0xFFFFFFFF (0000ms, 0311ms total)
T1670 000:344 JLINK_GetDebugInfo(0x103)  returns 0xFFFFFFFF (0000ms, 0311ms total)
T1670 000:344 JLINK_ReadMemEx(0xE0040FF0, 0x0010 Bytes, ..., AccessWidth = 33554436) -- CPU is running -- CPU_ReadMem(16 bytes @ 0xE0040FF0) - Data: 0D 00 00 00 90 00 00 00 05 00 00 00 B1 00 00 00  returns 0x10 (0000ms, 0311ms total)
T1670 000:344 JLINK_GetDebugInfo(0x104)  returns 0xFFFFFFFF (0000ms, 0311ms total)
T1670 000:345 JLINK_GetDebugInfo(0x105)  returns 0xFFFFFFFF (0000ms, 0311ms total)
T1670 000:345 JLINK_GetDebugInfo(0x106)  returns 0xFFFFFFFF (0000ms, 0311ms total)
T1670 000:345 JLINK_GetDebugInfo(0x107)  returns 0xFFFFFFFF (0000ms, 0311ms total)
T1670 000:345 JLINK_GetDebugInfo(0x10C)  returns 0xFFFFFFFF (0000ms, 0311ms total)
T1670 000:345 JLINK_ReadMemU32(0xE000ED00, 0x0001 Items, ...) -- CPU is running -- CPU_ReadMem(4 bytes @ 0xE000ED00) - Data: 31 C2 1F 41  returns 0x01 (0000ms, 0311ms total)
T1670 000:345 JLINK_GetDebugInfo(0x10F)  returns 0xFFFFFFFF (0000ms, 0311ms total)
T1670 000:345 JLINK_SetResetType(JLINKARM_RESET_TYPE_NORMAL)  returns JLINKARM_RESET_TYPE_NORMAL (0000ms, 0311ms total)
T1670 000:345 JLINK_Reset() -- CPU is running -- CPU_WriteMem(4 bytes @ 0xE000EDF0) -- CPU is running -- CPU_WriteMem(4 bytes @ 0xE000EDFC) >0x35 TIF> -- CPU is running -- CPU_WriteMem(4 bytes @ 0xE000ED0C) -- CPU is running -- CPU_ReadMem(4 bytes @ 0xE000EDF0) -- CPU is running -- CPU_ReadMem(4 bytes @ 0xE000EDF0) -- CPU is running -- CPU_WriteMem(4 bytes @ 0xE000EDF0) -- CPU is running -- CPU_WriteMem(4 bytes @ 0xE000EDFC) -- CPU is running -- CPU_ReadMem(4 bytes @ 0xE000EDF0)
 -- CPU_WriteMem(4 bytes @ 0xE0002000) -- CPU_ReadMem(4 bytes @ 0xE000EDFC) -- CPU_ReadMem(4 bytes @ 0xE0001000) (0020ms, 0331ms total)
T1670 000:365 JLINK_Halt()  returns 0x00 (0000ms, 0331ms total)
T1670 000:365 JLINK_ReadMemU32(0xE000EDF0, 0x0001 Items, ...) -- CPU_ReadMem(4 bytes @ 0xE000EDF0) - Data: 03 00 03 00  returns 0x01 (0001ms, 0332ms total)
T1670 000:366 JLINK_WriteU32(0xE000EDF0, 0xA05F0003) -- CPU_WriteMem(4 bytes @ 0xE000EDF0)  returns 0x00 (0000ms, 0332ms total)
T1670 000:366 JLINK_WriteU32(0xE000EDFC, 0x01000000) -- CPU_WriteMem(4 bytes @ 0xE000EDFC)  returns 0x00 (0001ms, 0333ms total)
T1670 000:375 JLINK_GetHWStatus(...)  returns 0x00 (0000ms, 0333ms total)
T1670 000:380 JLINK_GetNumBPUnits(Type = 0xFFFFFF00)  returns 0x06 (0000ms, 0333ms total)
T1670 000:380 JLINK_GetNumBPUnits(Type = 0xF0)  returns 0x2000 (0000ms, 0333ms total)
T1670 000:380 JLINK_GetNumWPUnits()  returns 0x04 (0000ms, 0333ms total)
T1670 000:386 JLINK_GetSpeed()  returns 0x7D0 (0000ms, 0333ms total)
T1670 000:391 JLINK_ReadMemU32(0xE000E004, 0x0001 Items, ...) -- CPU_ReadMem(4 bytes @ 0xE000E004) - Data: 01 00 00 00  returns 0x01 (0001ms, 0334ms total)
T1670 000:392 JLINK_ReadMemU32(0xE000E004, 0x0001 Items, ...) -- CPU_ReadMem(4 bytes @ 0xE000E004) - Data: 01 00 00 00  returns 0x01 (0001ms, 0335ms total)
T1670 000:393 JLINK_WriteMemEx(0xE0001000, 0x001C Bytes, ..., AccessWidth = 33554436) - Data: 01 00 00 00 00 00 00 00 00 00 00 00 00 00 00 00 ... -- CPU_WriteMem(28 bytes @ 0xE0001000)  returns 0x1C (0001ms, 0336ms total)
T1670 000:394 JLINK_Halt()  returns 0x00 (0000ms, 0336ms total)
T1670 000:394 JLINK_IsHalted()  returns TRUE (0000ms, 0336ms total)
T1670 000:397 JLINK_WriteMem(0x20000000, 0x0164 Bytes, ...) - Data: 00 BE 0A E0 0D 78 2D 06 68 40 08 24 40 00 00 D3 ... -- CPU_WriteMem(356 bytes @ 0x20000000)  returns 0x164 (0005ms, 0341ms total)
T1670 000:402 JLINK_WriteReg(R0, 0x08000000)  returns 0x00 (0000ms, 0341ms total)
T1670 000:402 JLINK_WriteReg(R1, 0x00B71B00)  returns 0x00 (0000ms, 0341ms total)
T1670 000:402 JLINK_WriteReg(R2, 0x00000001)  returns 0x00 (0000ms, 0341ms total)
T1670 000:402 JLINK_WriteReg(R3, 0x00000000)  returns 0x00 (0000ms, 0341ms total)
T1670 000:402 JLINK_WriteReg(R4, 0x00000000)  returns 0x00 (0000ms, 0341ms total)
T1670 000:402 JLINK_WriteReg(R5, 0x00000000)  returns 0x00 (0000ms, 0341ms total)
T1670 000:402 JLINK_WriteReg(R6, 0x00000000)  returns 0x00 (0000ms, 0341ms total)
T1670 000:402 JLINK_WriteReg(R7, 0x00000000)  returns 0x00 (0000ms, 0341ms total)
T1670 000:402 JLINK_WriteReg(R8, 0x00000000)  returns 0x00 (0000ms, 0341ms total)
T1670 000:402 JLINK_WriteReg(R9, 0x20000160)  returns 0x00 (0000ms, 0341ms total)
T1670 000:402 JLINK_WriteReg(R10, 0x00000000)  returns 0x00 (0000ms, 0341ms total)
T1670 000:402 JLINK_WriteReg(R11, 0x00000000)  returns 0x00 (0000ms, 0341ms total)
T1670 000:402 JLINK_WriteReg(R12, 0x00000000)  returns 0x00 (0000ms, 0341ms total)
T1670 000:402 JLINK_WriteReg(R13 (SP), 0x20001000)  returns 0x00 (0000ms, 0341ms total)
T1670 000:402 JLINK_WriteReg(R14, 0x20000001)  returns 0x00 (0000ms, 0341ms total)
T1670 000:403 JLINK_WriteReg(R15 (PC), 0x20000038)  returns 0x00 (0000ms, 0342ms total)
T1670 000:403 JLINK_WriteReg(XPSR, 0x01000000)  returns 0x00 (0000ms, 0342ms total)
T1670 000:403 JLINK_WriteReg(MSP, 0x20001000)  returns 0x00 (0000ms, 0342ms total)
T1670 000:403 JLINK_WriteReg(PSP, 0x20001000)  returns 0x00 (0000ms, 0342ms total)
T1670 000:403 JLINK_WriteReg(CFBP, 0x00000000)  returns 0x00 (0000ms, 0342ms total)
T1670 000:403 JLINK_SetBPEx(Addr = 0x20000000, Type = 0xFFFFFFF2) -- CPU_ReadMem(2 bytes @ 0x20000000)  returns 0x00000001 (0000ms, 0342ms total)
T1670 000:403 JLINK_Go() -- CPU_WriteMem(2 bytes @ 0x20000000) -- CPU_WriteMem(4 bytes @ 0xE0002008) -- CPU_WriteMem(4 bytes @ 0xE000200C) -- CPU_WriteMem(4 bytes @ 0xE0002010) -- CPU_WriteMem(4 bytes @ 0xE0002014) -- CPU_WriteMem(4 bytes @ 0xE0002018) -- CPU_WriteMem(4 bytes @ 0xE000201C) -- CPU_WriteMem(4 bytes @ 0xE0001004) (0006ms, 0348ms total)
T1670 000:409 JLINK_IsHalted() -- CPU_ReadMem(2 bytes @ 0x20000000)  returns TRUE (0005ms, 0353ms total)
T1670 000:414 JLINK_ReadReg(R15 (PC))  returns 0x20000000 (0000ms, 0348ms total)
T1670 000:414 JLINK_ClrBPEx(BPHandle = 0x00000001)  returns 0x00 (0000ms, 0348ms total)
T1670 000:414 JLINK_ReadReg(R0)  returns 0x00000000 (0000ms, 0348ms total)
T1670 000:415 JLINK_WriteReg(R0, 0x08000000)  returns 0x00 (0000ms, 0348ms total)
T1670 000:415 JLINK_WriteReg(R1, 0x00000400)  returns 0x00 (0000ms, 0348ms total)
T1670 000:415 JLINK_WriteReg(R2, 0x000000FF)  returns 0x00 (0000ms, 0348ms total)
T1670 000:415 JLINK_WriteReg(R3, 0x00000000)  returns 0x00 (0000ms, 0348ms total)
T1670 000:415 JLINK_WriteReg(R4, 0x00000000)  returns 0x00 (0000ms, 0348ms total)
T1670 000:415 JLINK_WriteReg(R5, 0x00000000)  returns 0x00 (0000ms, 0348ms total)
T1670 000:415 JLINK_WriteReg(R6, 0x00000000)  returns 0x00 (0000ms, 0348ms total)
T1670 000:415 JLINK_WriteReg(R7, 0x00000000)  returns 0x00 (0000ms, 0348ms total)
T1670 000:415 JLINK_WriteReg(R8, 0x00000000)  returns 0x00 (0000ms, 0348ms total)
T1670 000:415 JLINK_WriteReg(R9, 0x20000160)  returns 0x00 (0000ms, 0348ms total)
T1670 000:415 JLINK_WriteReg(R10, 0x00000000)  returns 0x00 (0000ms, 0348ms total)
T1670 000:415 JLINK_WriteReg(R11, 0x00000000)  returns 0x00 (0000ms, 0348ms total)
T1670 000:415 JLINK_WriteReg(R12, 0x00000000)  returns 0x00 (0000ms, 0348ms total)
T1670 000:415 JLINK_WriteReg(R13 (SP), 0x20001000)  returns 0x00 (0000ms, 0348ms total)
T1670 000:415 JLINK_WriteReg(R14, 0x20000001)  returns 0x00 (0000ms, 0348ms total)
T1670 000:415 JLINK_WriteReg(R15 (PC), 0x20000020)  returns 0x00 (0000ms, 0348ms total)
T1670 000:415 JLINK_WriteReg(XPSR, 0x01000000)  returns 0x00 (0000ms, 0348ms total)
T1670 000:415 JLINK_WriteReg(MSP, 0x20001000)  returns 0x00 (0000ms, 0348ms total)
T1670 000:415 JLINK_WriteReg(PSP, 0x20001000)  returns 0x00 (0000ms, 0348ms total)
T1670 000:415 JLINK_WriteReg(CFBP, 0x00000000)  returns 0x00 (0000ms, 0348ms total)
T1670 000:415 JLINK_SetBPEx(Addr = 0x20000000, Type = 0xFFFFFFF2)  returns 0x00000002 (0000ms, 0348ms total)
T1670 000:415 JLINK_Go() (0002ms, 0350ms total)
T1670 000:417 JLINK_IsHalted()  returns FALSE (0001ms, 0351ms total)
T1670 000:462 JLINK_IsHalted() -- CPU_ReadMem(2 bytes @ 0x20000000)  returns TRUE (0005ms, 0355ms total)
T1670 000:467 JLINK_ReadReg(R15 (PC))  returns 0x20000000 (0000ms, 0350ms total)
T1670 000:467 JLINK_ClrBPEx(BPHandle = 0x00000002)  returns 0x00 (0000ms, 0350ms total)
T1670 000:467 JLINK_ReadReg(R0)  returns 0x00000000 (0000ms, 0350ms total)
T1670 000:467 JLINK_WriteReg(R0, 0x08000400)  returns 0x00 (0000ms, 0350ms total)
T1670 000:467 JLINK_WriteReg(R1, 0x00000400)  returns 0x00 (0000ms, 0350ms total)
T1670 000:467 JLINK_WriteReg(R2, 0x000000FF)  returns 0x00 (0000ms, 0350ms total)
T1670 000:467 JLINK_WriteReg(R3, 0x00000000)  returns 0x00 (0000ms, 0350ms total)
T1670 000:467 JLINK_WriteReg(R4, 0x00000000)  returns 0x00 (0000ms, 0350ms total)
T1670 000:467 JLINK_WriteReg(R5, 0x00000000)  returns 0x00 (0000ms, 0350ms total)
T1670 000:467 JLINK_WriteReg(R6, 0x00000000)  returns 0x00 (0000ms, 0350ms total)
T1670 000:467 JLINK_WriteReg(R7, 0x00000000)  returns 0x00 (0000ms, 0350ms total)
T1670 000:467 JLINK_WriteReg(R8, 0x00000000)  returns 0x00 (0000ms, 0350ms total)
T1670 000:467 JLINK_WriteReg(R9, 0x20000160)  returns 0x00 (0000ms, 0350ms total)
T1670 000:467 JLINK_WriteReg(R10, 0x00000000)  returns 0x00 (0001ms, 0351ms total)
T1670 000:468 JLINK_WriteReg(R11, 0x00000000)  returns 0x00 (0000ms, 0351ms total)
T1670 000:468 JLINK_WriteReg(R12, 0x00000000)  returns 0x00 (0000ms, 0351ms total)
T1670 000:468 JLINK_WriteReg(R13 (SP), 0x20001000)  returns 0x00 (0000ms, 0351ms total)
T1670 000:468 JLINK_WriteReg(R14, 0x20000001)  returns 0x00 (0000ms, 0351ms total)
T1670 000:468 JLINK_WriteReg(R15 (PC), 0x20000020)  returns 0x00 (0000ms, 0351ms total)
T1670 000:468 JLINK_WriteReg(XPSR, 0x01000000)  returns 0x00 (0000ms, 0351ms total)
T1670 000:468 JLINK_WriteReg(MSP, 0x20001000)  returns 0x00 (0000ms, 0351ms total)
T1670 000:468 JLINK_WriteReg(PSP, 0x20001000)  returns 0x00 (0000ms, 0351ms total)
T1670 000:468 JLINK_WriteReg(CFBP, 0x00000000)  returns 0x00 (0000ms, 0351ms total)
T1670 000:468 JLINK_SetBPEx(Addr = 0x20000000, Type = 0xFFFFFFF2)  returns 0x00000003 (0000ms, 0351ms total)
T1670 000:468 JLINK_Go() (0002ms, 0353ms total)
T1670 000:470 JLINK_IsHalted()  returns FALSE (0000ms, 0353ms total)
T1670 000:472 JLINK_IsHalted() -- CPU_ReadMem(2 bytes @ 0x20000000)  returns TRUE (0005ms, 0358ms total)
T1670 000:477 JLINK_ReadReg(R15 (PC))  returns 0x20000000 (0000ms, 0353ms total)
T1670 000:477 JLINK_ClrBPEx(BPHandle = 0x00000003)  returns 0x00 (0000ms, 0353ms total)
T1670 000:477 JLINK_ReadReg(R0)  returns 0x00000000 (0000ms, 0353ms total)
T1670 000:477 JLINK_WriteReg(R0, 0x08000800)  returns 0x00 (0000ms, 0353ms total)
T1670 000:477 JLINK_WriteReg(R1, 0x00000400)  returns 0x00 (0000ms, 0353ms total)
T1670 000:477 JLINK_WriteReg(R2, 0x000000FF)  returns 0x00 (0000ms, 0353ms total)
T1670 000:477 JLINK_WriteReg(R3, 0x00000000)  returns 0x00 (0000ms, 0353ms total)
T1670 000:477 JLINK_WriteReg(R4, 0x00000000)  returns 0x00 (0000ms, 0353ms total)
T1670 000:477 JLINK_WriteReg(R5, 0x00000000)  returns 0x00 (0000ms, 0353ms total)
T1670 000:477 JLINK_WriteReg(R6, 0x00000000)  returns 0x00 (0000ms, 0353ms total)
T1670 000:477 JLINK_WriteReg(R7, 0x00000000)  returns 0x00 (0000ms, 0353ms total)
T1670 000:477 JLINK_WriteReg(R8, 0x00000000)  returns 0x00 (0000ms, 0353ms total)
T1670 000:477 JLINK_WriteReg(R9, 0x20000160)  returns 0x00 (0000ms, 0353ms total)
T1670 000:477 JLINK_WriteReg(R10, 0x00000000)  returns 0x00 (0000ms, 0353ms total)
T1670 000:477 JLINK_WriteReg(R11, 0x00000000)  returns 0x00 (0000ms, 0353ms total)
T1670 000:477 JLINK_WriteReg(R12, 0x00000000)  returns 0x00 (0000ms, 0353ms total)
T1670 000:477 JLINK_WriteReg(R13 (SP), 0x20001000)  returns 0x00 (0000ms, 0353ms total)
T1670 000:477 JLINK_WriteReg(R14, 0x20000001)  returns 0x00 (0000ms, 0353ms total)
T1670 000:477 JLINK_WriteReg(R15 (PC), 0x20000020)  returns 0x00 (0000ms, 0353ms total)
T1670 000:477 JLINK_WriteReg(XPSR, 0x01000000)  returns 0x00 (0000ms, 0353ms total)
T1670 000:477 JLINK_WriteReg(MSP, 0x20001000)  returns 0x00 (0000ms, 0353ms total)
T1670 000:477 JLINK_WriteReg(PSP, 0x20001000)  returns 0x00 (0000ms, 0353ms total)
T1670 000:477 JLINK_WriteReg(CFBP, 0x00000000)  returns 0x00 (0000ms, 0353ms total)
T1670 000:477 JLINK_SetBPEx(Addr = 0x20000000, Type = 0xFFFFFFF2)  returns 0x00000004 (0000ms, 0353ms total)
T1670 000:477 JLINK_Go() (0002ms, 0355ms total)
T1670 000:479 JLINK_IsHalted()  returns FALSE (0001ms, 0356ms total)
T1670 000:482 JLINK_IsHalted() -- CPU_ReadMem(2 bytes @ 0x20000000)  returns TRUE (0004ms, 0359ms total)
T1670 000:486 JLINK_ReadReg(R15 (PC))  returns 0x20000000 (0000ms, 0355ms total)
T1670 000:486 JLINK_ClrBPEx(BPHandle = 0x00000004)  returns 0x00 (0000ms, 0355ms total)
T1670 000:486 JLINK_ReadReg(R0)  returns 0x00000000 (0001ms, 0356ms total)
T1670 000:487 JLINK_WriteReg(R0, 0x08000C00)  returns 0x00 (0000ms, 0356ms total)
T1670 000:487 JLINK_WriteReg(R1, 0x00000400)  returns 0x00 (0000ms, 0356ms total)
T1670 000:487 JLINK_WriteReg(R2, 0x000000FF)  returns 0x00 (0000ms, 0356ms total)
T1670 000:487 JLINK_WriteReg(R3, 0x00000000)  returns 0x00 (0000ms, 0356ms total)
T1670 000:487 JLINK_WriteReg(R4, 0x00000000)  returns 0x00 (0000ms, 0356ms total)
T1670 000:487 JLINK_WriteReg(R5, 0x00000000)  returns 0x00 (0000ms, 0356ms total)
T1670 000:487 JLINK_WriteReg(R6, 0x00000000)  returns 0x00 (0000ms, 0356ms total)
T1670 000:487 JLINK_WriteReg(R7, 0x00000000)  returns 0x00 (0000ms, 0356ms total)
T1670 000:487 JLINK_WriteReg(R8, 0x00000000)  returns 0x00 (0000ms, 0356ms total)
T1670 000:487 JLINK_WriteReg(R9, 0x20000160)  returns 0x00 (0000ms, 0356ms total)
T1670 000:487 JLINK_WriteReg(R10, 0x00000000)  returns 0x00 (0000ms, 0356ms total)
T1670 000:487 JLINK_WriteReg(R11, 0x00000000)  returns 0x00 (0000ms, 0356ms total)
T1670 000:487 JLINK_WriteReg(R12, 0x00000000)  returns 0x00 (0000ms, 0356ms total)
T1670 000:487 JLINK_WriteReg(R13 (SP), 0x20001000)  returns 0x00 (0000ms, 0356ms total)
T1670 000:487 JLINK_WriteReg(R14, 0x20000001)  returns 0x00 (0000ms, 0356ms total)
T1670 000:487 JLINK_WriteReg(R15 (PC), 0x20000020)  returns 0x00 (0000ms, 0356ms total)
T1670 000:487 JLINK_WriteReg(XPSR, 0x01000000)  returns 0x00 (0000ms, 0356ms total)
T1670 000:487 JLINK_WriteReg(MSP, 0x20001000)  returns 0x00 (0000ms, 0356ms total)
T1670 000:487 JLINK_WriteReg(PSP, 0x20001000)  returns 0x00 (0000ms, 0356ms total)
T1670 000:487 JLINK_WriteReg(CFBP, 0x00000000)  returns 0x00 (0000ms, 0356ms total)
T1670 000:487 JLINK_SetBPEx(Addr = 0x20000000, Type = 0xFFFFFFF2)  returns 0x00000005 (0000ms, 0356ms total)
T1670 000:487 JLINK_Go() (0002ms, 0358ms total)
T1670 000:489 JLINK_IsHalted()  returns FALSE (0001ms, 0359ms total)
T1670 000:495 JLINK_IsHalted() -- CPU_ReadMem(2 bytes @ 0x20000000)  returns TRUE (0005ms, 0363ms total)
T1670 000:500 JLINK_ReadReg(R15 (PC))  returns 0x20000000 (0000ms, 0358ms total)
T1670 000:500 JLINK_ClrBPEx(BPHandle = 0x00000005)  returns 0x00 (0000ms, 0358ms total)
T1670 000:500 JLINK_ReadReg(R0)  returns 0x00000000 (0000ms, 0358ms total)
T1670 000:500 JLINK_WriteReg(R0, 0x08001000)  returns 0x00 (0000ms, 0358ms total)
T1670 000:500 JLINK_WriteReg(R1, 0x00000400)  returns 0x00 (0000ms, 0358ms total)
T1670 000:500 JLINK_WriteReg(R2, 0x000000FF)  returns 0x00 (0000ms, 0358ms total)
T1670 000:500 JLINK_WriteReg(R3, 0x00000000)  returns 0x00 (0000ms, 0358ms total)
T1670 000:500 JLINK_WriteReg(R4, 0x00000000)  returns 0x00 (0000ms, 0358ms total)
T1670 000:500 JLINK_WriteReg(R5, 0x00000000)  returns 0x00 (0000ms, 0358ms total)
T1670 000:500 JLINK_WriteReg(R6, 0x00000000)  returns 0x00 (0000ms, 0358ms total)
T1670 000:500 JLINK_WriteReg(R7, 0x00000000)  returns 0x00 (0000ms, 0358ms total)
T1670 000:500 JLINK_WriteReg(R8, 0x00000000)  returns 0x00 (0000ms, 0358ms total)
T1670 000:500 JLINK_WriteReg(R9, 0x20000160)  returns 0x00 (0000ms, 0358ms total)
T1670 000:500 JLINK_WriteReg(R10, 0x00000000)  returns 0x00 (0000ms, 0358ms total)
T1670 000:500 JLINK_WriteReg(R11, 0x00000000)  returns 0x00 (0000ms, 0358ms total)
T1670 000:500 JLINK_WriteReg(R12, 0x00000000)  returns 0x00 (0000ms, 0358ms total)
T1670 000:500 JLINK_WriteReg(R13 (SP), 0x20001000)  returns 0x00 (0000ms, 0358ms total)
T1670 000:500 JLINK_WriteReg(R14, 0x20000001)  returns 0x00 (0000ms, 0358ms total)
T1670 000:500 JLINK_WriteReg(R15 (PC), 0x20000020)  returns 0x00 (0000ms, 0358ms total)
T1670 000:500 JLINK_WriteReg(XPSR, 0x01000000)  returns 0x00 (0000ms, 0358ms total)
T1670 000:500 JLINK_WriteReg(MSP, 0x20001000)  returns 0x00 (0000ms, 0358ms total)
T1670 000:500 JLINK_WriteReg(PSP, 0x20001000)  returns 0x00 (0000ms, 0358ms total)
T1670 000:500 JLINK_WriteReg(CFBP, 0x00000000)  returns 0x00 (0000ms, 0358ms total)
T1670 000:500 JLINK_SetBPEx(Addr = 0x20000000, Type = 0xFFFFFFF2)  returns 0x00000006 (0000ms, 0358ms total)
T1670 000:501 JLINK_Go() (0002ms, 0360ms total)
T1670 000:503 JLINK_IsHalted()  returns FALSE (0000ms, 0360ms total)
T1670 000:505 JLINK_IsHalted() -- CPU_ReadMem(2 bytes @ 0x20000000)  returns TRUE (0005ms, 0365ms total)
T1670 000:510 JLINK_ReadReg(R15 (PC))  returns 0x20000000 (0000ms, 0360ms total)
T1670 000:510 JLINK_ClrBPEx(BPHandle = 0x00000006)  returns 0x00 (0000ms, 0360ms total)
T1670 000:510 JLINK_ReadReg(R0)  returns 0x00000000 (0000ms, 0360ms total)
T1670 000:510 JLINK_WriteReg(R0, 0x08001400)  returns 0x00 (0000ms, 0360ms total)
T1670 000:510 JLINK_WriteReg(R1, 0x00000400)  returns 0x00 (0000ms, 0360ms total)
T1670 000:510 JLINK_WriteReg(R2, 0x000000FF)  returns 0x00 (0000ms, 0360ms total)
T1670 000:510 JLINK_WriteReg(R3, 0x00000000)  returns 0x00 (0000ms, 0360ms total)
T1670 000:510 JLINK_WriteReg(R4, 0x00000000)  returns 0x00 (0000ms, 0360ms total)
T1670 000:510 JLINK_WriteReg(R5, 0x00000000)  returns 0x00 (0000ms, 0360ms total)
T1670 000:510 JLINK_WriteReg(R6, 0x00000000)  returns 0x00 (0000ms, 0360ms total)
T1670 000:510 JLINK_WriteReg(R7, 0x00000000)  returns 0x00 (0000ms, 0360ms total)
T1670 000:510 JLINK_WriteReg(R8, 0x00000000)  returns 0x00 (0000ms, 0360ms total)
T1670 000:510 JLINK_WriteReg(R9, 0x20000160)  returns 0x00 (0000ms, 0360ms total)
T1670 000:510 JLINK_WriteReg(R10, 0x00000000)  returns 0x00 (0000ms, 0360ms total)
T1670 000:510 JLINK_WriteReg(R11, 0x00000000)  returns 0x00 (0000ms, 0360ms total)
T1670 000:510 JLINK_WriteReg(R12, 0x00000000)  returns 0x00 (0000ms, 0360ms total)
T1670 000:510 JLINK_WriteReg(R13 (SP), 0x20001000)  returns 0x00 (0000ms, 0360ms total)
T1670 000:510 JLINK_WriteReg(R14, 0x20000001)  returns 0x00 (0001ms, 0361ms total)
T1670 000:511 JLINK_WriteReg(R15 (PC), 0x20000020)  returns 0x00 (0000ms, 0361ms total)
T1670 000:511 JLINK_WriteReg(XPSR, 0x01000000)  returns 0x00 (0000ms, 0361ms total)
T1670 000:511 JLINK_WriteReg(MSP, 0x20001000)  returns 0x00 (0000ms, 0361ms total)
T1670 000:511 JLINK_WriteReg(PSP, 0x20001000)  returns 0x00 (0000ms, 0361ms total)
T1670 000:511 JLINK_WriteReg(CFBP, 0x00000000)  returns 0x00 (0000ms, 0361ms total)
T1670 000:511 JLINK_SetBPEx(Addr = 0x20000000, Type = 0xFFFFFFF2)  returns 0x00000007 (0000ms, 0361ms total)
T1670 000:511 JLINK_Go() (0002ms, 0363ms total)
T1670 000:513 JLINK_IsHalted()  returns FALSE (0000ms, 0363ms total)
T1670 000:515 JLINK_IsHalted() -- CPU_ReadMem(2 bytes @ 0x20000000)  returns TRUE (0004ms, 0367ms total)
T1670 000:519 JLINK_ReadReg(R15 (PC))  returns 0x20000000 (0000ms, 0363ms total)
T1670 000:519 JLINK_ClrBPEx(BPHandle = 0x00000007)  returns 0x00 (0000ms, 0363ms total)
T1670 000:519 JLINK_ReadReg(R0)  returns 0x00000000 (0001ms, 0364ms total)
T1670 000:520 JLINK_WriteReg(R0, 0x08001800)  returns 0x00 (0000ms, 0364ms total)
T1670 000:520 JLINK_WriteReg(R1, 0x00000400)  returns 0x00 (0000ms, 0364ms total)
T1670 000:520 JLINK_WriteReg(R2, 0x000000FF)  returns 0x00 (0000ms, 0364ms total)
T1670 000:520 JLINK_WriteReg(R3, 0x00000000)  returns 0x00 (0000ms, 0364ms total)
T1670 000:520 JLINK_WriteReg(R4, 0x00000000)  returns 0x00 (0000ms, 0364ms total)
T1670 000:520 JLINK_WriteReg(R5, 0x00000000)  returns 0x00 (0000ms, 0364ms total)
T1670 000:520 JLINK_WriteReg(R6, 0x00000000)  returns 0x00 (0000ms, 0364ms total)
T1670 000:520 JLINK_WriteReg(R7, 0x00000000)  returns 0x00 (0000ms, 0364ms total)
T1670 000:520 JLINK_WriteReg(R8, 0x00000000)  returns 0x00 (0000ms, 0364ms total)
T1670 000:520 JLINK_WriteReg(R9, 0x20000160)  returns 0x00 (0000ms, 0364ms total)
T1670 000:520 JLINK_WriteReg(R10, 0x00000000)  returns 0x00 (0000ms, 0364ms total)
T1670 000:520 JLINK_WriteReg(R11, 0x00000000)  returns 0x00 (0000ms, 0364ms total)
T1670 000:520 JLINK_WriteReg(R12, 0x00000000)  returns 0x00 (0000ms, 0364ms total)
T1670 000:520 JLINK_WriteReg(R13 (SP), 0x20001000)  returns 0x00 (0000ms, 0364ms total)
T1670 000:520 JLINK_WriteReg(R14, 0x20000001)  returns 0x00 (0000ms, 0364ms total)
T1670 000:520 JLINK_WriteReg(R15 (PC), 0x20000020)  returns 0x00 (0000ms, 0364ms total)
T1670 000:520 JLINK_WriteReg(XPSR, 0x01000000)  returns 0x00 (0000ms, 0364ms total)
T1670 000:520 JLINK_WriteReg(MSP, 0x20001000)  returns 0x00 (0000ms, 0364ms total)
T1670 000:520 JLINK_WriteReg(PSP, 0x20001000)  returns 0x00 (0000ms, 0364ms total)
T1670 000:520 JLINK_WriteReg(CFBP, 0x00000000)  returns 0x00 (0000ms, 0364ms total)
T1670 000:520 JLINK_SetBPEx(Addr = 0x20000000, Type = 0xFFFFFFF2)  returns 0x00000008 (0000ms, 0364ms total)
T1670 000:520 JLINK_Go() (0003ms, 0367ms total)
T1670 000:523 JLINK_IsHalted()  returns FALSE (0000ms, 0367ms total)
T1670 000:525 JLINK_IsHalted() -- CPU_ReadMem(2 bytes @ 0x20000000)  returns TRUE (0005ms, 0372ms total)
T1670 000:530 JLINK_ReadReg(R15 (PC))  returns 0x20000000 (0000ms, 0367ms total)
T1670 000:530 JLINK_ClrBPEx(BPHandle = 0x00000008)  returns 0x00 (0000ms, 0367ms total)
T1670 000:530 JLINK_ReadReg(R0)  returns 0x00000000 (0000ms, 0367ms total)
T1670 000:531 JLINK_WriteReg(R0, 0x08001C00)  returns 0x00 (0000ms, 0367ms total)
T1670 000:531 JLINK_WriteReg(R1, 0x00000400)  returns 0x00 (0000ms, 0367ms total)
T1670 000:531 JLINK_WriteReg(R2, 0x000000FF)  returns 0x00 (0000ms, 0367ms total)
T1670 000:531 JLINK_WriteReg(R3, 0x00000000)  returns 0x00 (0000ms, 0367ms total)
T1670 000:531 JLINK_WriteReg(R4, 0x00000000)  returns 0x00 (0000ms, 0367ms total)
T1670 000:531 JLINK_WriteReg(R5, 0x00000000)  returns 0x00 (0000ms, 0367ms total)
T1670 000:531 JLINK_WriteReg(R6, 0x00000000)  returns 0x00 (0000ms, 0367ms total)
T1670 000:531 JLINK_WriteReg(R7, 0x00000000)  returns 0x00 (0000ms, 0367ms total)
T1670 000:531 JLINK_WriteReg(R8, 0x00000000)  returns 0x00 (0000ms, 0367ms total)
T1670 000:531 JLINK_WriteReg(R9, 0x20000160)  returns 0x00 (0000ms, 0367ms total)
T1670 000:531 JLINK_WriteReg(R10, 0x00000000)  returns 0x00 (0000ms, 0367ms total)
T1670 000:531 JLINK_WriteReg(R11, 0x00000000)  returns 0x00 (0000ms, 0367ms total)
T1670 000:531 JLINK_WriteReg(R12, 0x00000000)  returns 0x00 (0000ms, 0367ms total)
T1670 000:531 JLINK_WriteReg(R13 (SP), 0x20001000)  returns 0x00 (0000ms, 0367ms total)
T1670 000:531 JLINK_WriteReg(R14, 0x20000001)  returns 0x00 (0000ms, 0367ms total)
T1670 000:531 JLINK_WriteReg(R15 (PC), 0x20000020)  returns 0x00 (0000ms, 0367ms total)
T1670 000:531 JLINK_WriteReg(XPSR, 0x01000000)  returns 0x00 (0000ms, 0367ms total)
T1670 000:531 JLINK_WriteReg(MSP, 0x20001000)  returns 0x00 (0000ms, 0367ms total)
T1670 000:531 JLINK_WriteReg(PSP, 0x20001000)  returns 0x00 (0000ms, 0367ms total)
T1670 000:531 JLINK_WriteReg(CFBP, 0x00000000)  returns 0x00 (0000ms, 0367ms total)
T1670 000:531 JLINK_SetBPEx(Addr = 0x20000000, Type = 0xFFFFFFF2)  returns 0x00000009 (0000ms, 0367ms total)
T1670 000:531 JLINK_Go() (0002ms, 0369ms total)
T1670 000:533 JLINK_IsHalted()  returns FALSE (0001ms, 0370ms total)
T1670 000:537 JLINK_IsHalted() -- CPU_ReadMem(2 bytes @ 0x20000000)  returns TRUE (0004ms, 0373ms total)
T1670 000:541 JLINK_ReadReg(R15 (PC))  returns 0x20000000 (0000ms, 0369ms total)
T1670 000:541 JLINK_ClrBPEx(BPHandle = 0x00000009)  returns 0x00 (0001ms, 0370ms total)
T1670 000:542 JLINK_ReadReg(R0)  returns 0x00000000 (0000ms, 0370ms total)
T1670 000:542 JLINK_WriteReg(R0, 0x08002000)  returns 0x00 (0000ms, 0370ms total)
T1670 000:542 JLINK_WriteReg(R1, 0x00000400)  returns 0x00 (0000ms, 0370ms total)
T1670 000:542 JLINK_WriteReg(R2, 0x000000FF)  returns 0x00 (0000ms, 0370ms total)
T1670 000:542 JLINK_WriteReg(R3, 0x00000000)  returns 0x00 (0000ms, 0370ms total)
T1670 000:542 JLINK_WriteReg(R4, 0x00000000)  returns 0x00 (0000ms, 0370ms total)
T1670 000:542 JLINK_WriteReg(R5, 0x00000000)  returns 0x00 (0000ms, 0370ms total)
T1670 000:542 JLINK_WriteReg(R6, 0x00000000)  returns 0x00 (0000ms, 0370ms total)
T1670 000:542 JLINK_WriteReg(R7, 0x00000000)  returns 0x00 (0000ms, 0370ms total)
T1670 000:542 JLINK_WriteReg(R8, 0x00000000)  returns 0x00 (0000ms, 0370ms total)
T1670 000:542 JLINK_WriteReg(R9, 0x20000160)  returns 0x00 (0000ms, 0370ms total)
T1670 000:542 JLINK_WriteReg(R10, 0x00000000)  returns 0x00 (0000ms, 0370ms total)
T1670 000:542 JLINK_WriteReg(R11, 0x00000000)  returns 0x00 (0000ms, 0370ms total)
T1670 000:542 JLINK_WriteReg(R12, 0x00000000)  returns 0x00 (0000ms, 0370ms total)
T1670 000:542 JLINK_WriteReg(R13 (SP), 0x20001000)  returns 0x00 (0000ms, 0370ms total)
T1670 000:542 JLINK_WriteReg(R14, 0x20000001)  returns 0x00 (0000ms, 0370ms total)
T1670 000:542 JLINK_WriteReg(R15 (PC), 0x20000020)  returns 0x00 (0000ms, 0370ms total)
T1670 000:542 JLINK_WriteReg(XPSR, 0x01000000)  returns 0x00 (0000ms, 0370ms total)
T1670 000:542 JLINK_WriteReg(MSP, 0x20001000)  returns 0x00 (0000ms, 0370ms total)
T1670 000:542 JLINK_WriteReg(PSP, 0x20001000)  returns 0x00 (0000ms, 0370ms total)
T1670 000:542 JLINK_WriteReg(CFBP, 0x00000000)  returns 0x00 (0000ms, 0370ms total)
T1670 000:542 JLINK_SetBPEx(Addr = 0x20000000, Type = 0xFFFFFFF2)  returns 0x0000000A (0000ms, 0370ms total)
T1670 000:542 JLINK_Go() (0002ms, 0372ms total)
T1670 000:544 JLINK_IsHalted()  returns FALSE (0001ms, 0373ms total)
T1670 000:547 JLINK_IsHalted() -- CPU_ReadMem(2 bytes @ 0x20000000)  returns TRUE (0005ms, 0377ms total)
T1670 000:552 JLINK_ReadReg(R15 (PC))  returns 0x20000000 (0000ms, 0372ms total)
T1670 000:552 JLINK_ClrBPEx(BPHandle = 0x0000000A)  returns 0x00 (0000ms, 0372ms total)
T1670 000:552 JLINK_ReadReg(R0)  returns 0x00000000 (0000ms, 0372ms total)
T1670 000:552 JLINK_WriteReg(R0, 0x08002400)  returns 0x00 (0000ms, 0372ms total)
T1670 000:552 JLINK_WriteReg(R1, 0x00000400)  returns 0x00 (0000ms, 0372ms total)
T1670 000:552 JLINK_WriteReg(R2, 0x000000FF)  returns 0x00 (0000ms, 0372ms total)
T1670 000:552 JLINK_WriteReg(R3, 0x00000000)  returns 0x00 (0000ms, 0372ms total)
T1670 000:552 JLINK_WriteReg(R4, 0x00000000)  returns 0x00 (0000ms, 0372ms total)
T1670 000:552 JLINK_WriteReg(R5, 0x00000000)  returns 0x00 (0000ms, 0372ms total)
T1670 000:552 JLINK_WriteReg(R6, 0x00000000)  returns 0x00 (0000ms, 0372ms total)
T1670 000:552 JLINK_WriteReg(R7, 0x00000000)  returns 0x00 (0000ms, 0372ms total)
T1670 000:552 JLINK_WriteReg(R8, 0x00000000)  returns 0x00 (0000ms, 0372ms total)
T1670 000:552 JLINK_WriteReg(R9, 0x20000160)  returns 0x00 (0000ms, 0372ms total)
T1670 000:552 JLINK_WriteReg(R10, 0x00000000)  returns 0x00 (0000ms, 0372ms total)
T1670 000:552 JLINK_WriteReg(R11, 0x00000000)  returns 0x00 (0000ms, 0372ms total)
T1670 000:552 JLINK_WriteReg(R12, 0x00000000)  returns 0x00 (0000ms, 0372ms total)
T1670 000:552 JLINK_WriteReg(R13 (SP), 0x20001000)  returns 0x00 (0000ms, 0372ms total)
T1670 000:552 JLINK_WriteReg(R14, 0x20000001)  returns 0x00 (0000ms, 0372ms total)
T1670 000:552 JLINK_WriteReg(R15 (PC), 0x20000020)  returns 0x00 (0000ms, 0372ms total)
T1670 000:552 JLINK_WriteReg(XPSR, 0x01000000)  returns 0x00 (0000ms, 0372ms total)
T1670 000:552 JLINK_WriteReg(MSP, 0x20001000)  returns 0x00 (0000ms, 0372ms total)
T1670 000:552 JLINK_WriteReg(PSP, 0x20001000)  returns 0x00 (0000ms, 0372ms total)
T1670 000:552 JLINK_WriteReg(CFBP, 0x00000000)  returns 0x00 (0000ms, 0372ms total)
T1670 000:552 JLINK_SetBPEx(Addr = 0x20000000, Type = 0xFFFFFFF2)  returns 0x0000000B (0000ms, 0372ms total)
T1670 000:552 JLINK_Go() (0003ms, 0375ms total)
T1670 000:555 JLINK_IsHalted()  returns FALSE (0000ms, 0375ms total)
T1670 000:557 JLINK_IsHalted() -- CPU_ReadMem(2 bytes @ 0x20000000)  returns TRUE (0005ms, 0380ms total)
T1670 000:562 JLINK_ReadReg(R15 (PC))  returns 0x20000000 (0000ms, 0375ms total)
T1670 000:562 JLINK_ClrBPEx(BPHandle = 0x0000000B)  returns 0x00 (0000ms, 0375ms total)
T1670 000:562 JLINK_ReadReg(R0)  returns 0x00000000 (0000ms, 0375ms total)
T1670 000:563 JLINK_WriteReg(R0, 0x08002800)  returns 0x00 (0000ms, 0375ms total)
T1670 000:563 JLINK_WriteReg(R1, 0x00000400)  returns 0x00 (0000ms, 0375ms total)
T1670 000:563 JLINK_WriteReg(R2, 0x000000FF)  returns 0x00 (0000ms, 0375ms total)
T1670 000:563 JLINK_WriteReg(R3, 0x00000000)  returns 0x00 (0000ms, 0375ms total)
T1670 000:563 JLINK_WriteReg(R4, 0x00000000)  returns 0x00 (0000ms, 0375ms total)
T1670 000:563 JLINK_WriteReg(R5, 0x00000000)  returns 0x00 (0000ms, 0375ms total)
T1670 000:563 JLINK_WriteReg(R6, 0x00000000)  returns 0x00 (0000ms, 0375ms total)
T1670 000:563 JLINK_WriteReg(R7, 0x00000000)  returns 0x00 (0000ms, 0375ms total)
T1670 000:563 JLINK_WriteReg(R8, 0x00000000)  returns 0x00 (0000ms, 0375ms total)
T1670 000:563 JLINK_WriteReg(R9, 0x20000160)  returns 0x00 (0000ms, 0375ms total)
T1670 000:563 JLINK_WriteReg(R10, 0x00000000)  returns 0x00 (0000ms, 0375ms total)
T1670 000:563 JLINK_WriteReg(R11, 0x00000000)  returns 0x00 (0000ms, 0375ms total)
T1670 000:563 JLINK_WriteReg(R12, 0x00000000)  returns 0x00 (0000ms, 0375ms total)
T1670 000:563 JLINK_WriteReg(R13 (SP), 0x20001000)  returns 0x00 (0000ms, 0375ms total)
T1670 000:563 JLINK_WriteReg(R14, 0x20000001)  returns 0x00 (0000ms, 0375ms total)
T1670 000:563 JLINK_WriteReg(R15 (PC), 0x20000020)  returns 0x00 (0000ms, 0375ms total)
T1670 000:563 JLINK_WriteReg(XPSR, 0x01000000)  returns 0x00 (0000ms, 0375ms total)
T1670 000:563 JLINK_WriteReg(MSP, 0x20001000)  returns 0x00 (0000ms, 0375ms total)
T1670 000:563 JLINK_WriteReg(PSP, 0x20001000)  returns 0x00 (0000ms, 0375ms total)
T1670 000:563 JLINK_WriteReg(CFBP, 0x00000000)  returns 0x00 (0000ms, 0375ms total)
T1670 000:563 JLINK_SetBPEx(Addr = 0x20000000, Type = 0xFFFFFFF2)  returns 0x0000000C (0000ms, 0375ms total)
T1670 000:563 JLINK_Go() (0002ms, 0377ms total)
T1670 000:565 JLINK_IsHalted()  returns FALSE (0001ms, 0378ms total)
T1670 000:568 JLINK_IsHalted() -- CPU_ReadMem(2 bytes @ 0x20000000)  returns TRUE (0005ms, 0382ms total)
T1670 000:573 JLINK_ReadReg(R15 (PC))  returns 0x20000000 (0000ms, 0377ms total)
T1670 000:573 JLINK_ClrBPEx(BPHandle = 0x0000000C)  returns 0x00 (0000ms, 0377ms total)
T1670 000:573 JLINK_ReadReg(R0)  returns 0x00000000 (0000ms, 0377ms total)
T1670 000:573 JLINK_WriteReg(R0, 0x08002C00)  returns 0x00 (0000ms, 0377ms total)
T1670 000:573 JLINK_WriteReg(R1, 0x00000400)  returns 0x00 (0000ms, 0377ms total)
T1670 000:573 JLINK_WriteReg(R2, 0x000000FF)  returns 0x00 (0000ms, 0377ms total)
T1670 000:573 JLINK_WriteReg(R3, 0x00000000)  returns 0x00 (0000ms, 0377ms total)
T1670 000:573 JLINK_WriteReg(R4, 0x00000000)  returns 0x00 (0000ms, 0377ms total)
T1670 000:573 JLINK_WriteReg(R5, 0x00000000)  returns 0x00 (0000ms, 0377ms total)
T1670 000:573 JLINK_WriteReg(R6, 0x00000000)  returns 0x00 (0000ms, 0377ms total)
T1670 000:573 JLINK_WriteReg(R7, 0x00000000)  returns 0x00 (0000ms, 0377ms total)
T1670 000:573 JLINK_WriteReg(R8, 0x00000000)  returns 0x00 (0000ms, 0377ms total)
T1670 000:573 JLINK_WriteReg(R9, 0x20000160)  returns 0x00 (0000ms, 0377ms total)
T1670 000:573 JLINK_WriteReg(R10, 0x00000000)  returns 0x00 (0000ms, 0377ms total)
T1670 000:573 JLINK_WriteReg(R11, 0x00000000)  returns 0x00 (0000ms, 0377ms total)
T1670 000:573 JLINK_WriteReg(R12, 0x00000000)  returns 0x00 (0000ms, 0377ms total)
T1670 000:573 JLINK_WriteReg(R13 (SP), 0x20001000)  returns 0x00 (0000ms, 0377ms total)
T1670 000:573 JLINK_WriteReg(R14, 0x20000001)  returns 0x00 (0000ms, 0377ms total)
T1670 000:573 JLINK_WriteReg(R15 (PC), 0x20000020)  returns 0x00 (0000ms, 0377ms total)
T1670 000:573 JLINK_WriteReg(XPSR, 0x01000000)  returns 0x00 (0000ms, 0377ms total)
T1670 000:573 JLINK_WriteReg(MSP, 0x20001000)  returns 0x00 (0000ms, 0377ms total)
T1670 000:573 JLINK_WriteReg(PSP, 0x20001000)  returns 0x00 (0000ms, 0377ms total)
T1670 000:573 JLINK_WriteReg(CFBP, 0x00000000)  returns 0x00 (0000ms, 0377ms total)
T1670 000:573 JLINK_SetBPEx(Addr = 0x20000000, Type = 0xFFFFFFF2)  returns 0x0000000D (0000ms, 0377ms total)
T1670 000:573 JLINK_Go() (0002ms, 0379ms total)
T1670 000:575 JLINK_IsHalted()  returns FALSE (0001ms, 0380ms total)
T1670 000:578 JLINK_IsHalted() -- CPU_ReadMem(2 bytes @ 0x20000000)  returns TRUE (0005ms, 0384ms total)
T1670 000:583 JLINK_ReadReg(R15 (PC))  returns 0x20000000 (0000ms, 0379ms total)
T1670 000:583 JLINK_ClrBPEx(BPHandle = 0x0000000D)  returns 0x00 (0000ms, 0379ms total)
T1670 000:583 JLINK_ReadReg(R0)  returns 0x00000000 (0000ms, 0379ms total)
T1670 000:583 JLINK_WriteReg(R0, 0x08003000)  returns 0x00 (0000ms, 0379ms total)
T1670 000:583 JLINK_WriteReg(R1, 0x00000400)  returns 0x00 (0000ms, 0379ms total)
T1670 000:583 JLINK_WriteReg(R2, 0x000000FF)  returns 0x00 (0000ms, 0379ms total)
T1670 000:583 JLINK_WriteReg(R3, 0x00000000)  returns 0x00 (0000ms, 0379ms total)
T1670 000:583 JLINK_WriteReg(R4, 0x00000000)  returns 0x00 (0000ms, 0379ms total)
T1670 000:583 JLINK_WriteReg(R5, 0x00000000)  returns 0x00 (0000ms, 0379ms total)
T1670 000:583 JLINK_WriteReg(R6, 0x00000000)  returns 0x00 (0000ms, 0379ms total)
T1670 000:583 JLINK_WriteReg(R7, 0x00000000)  returns 0x00 (0000ms, 0379ms total)
T1670 000:583 JLINK_WriteReg(R8, 0x00000000)  returns 0x00 (0000ms, 0379ms total)
T1670 000:583 JLINK_WriteReg(R9, 0x20000160)  returns 0x00 (0001ms, 0380ms total)
T1670 000:584 JLINK_WriteReg(R10, 0x00000000)  returns 0x00 (0000ms, 0380ms total)
T1670 000:584 JLINK_WriteReg(R11, 0x00000000)  returns 0x00 (0000ms, 0380ms total)
T1670 000:584 JLINK_WriteReg(R12, 0x00000000)  returns 0x00 (0000ms, 0380ms total)
T1670 000:584 JLINK_WriteReg(R13 (SP), 0x20001000)  returns 0x00 (0000ms, 0380ms total)
T1670 000:584 JLINK_WriteReg(R14, 0x20000001)  returns 0x00 (0000ms, 0380ms total)
T1670 000:584 JLINK_WriteReg(R15 (PC), 0x20000020)  returns 0x00 (0000ms, 0380ms total)
T1670 000:584 JLINK_WriteReg(XPSR, 0x01000000)  returns 0x00 (0000ms, 0380ms total)
T1670 000:584 JLINK_WriteReg(MSP, 0x20001000)  returns 0x00 (0000ms, 0380ms total)
T1670 000:584 JLINK_WriteReg(PSP, 0x20001000)  returns 0x00 (0000ms, 0380ms total)
T1670 000:584 JLINK_WriteReg(CFBP, 0x00000000)  returns 0x00 (0000ms, 0380ms total)
T1670 000:584 JLINK_SetBPEx(Addr = 0x20000000, Type = 0xFFFFFFF2)  returns 0x0000000E (0000ms, 0380ms total)
T1670 000:584 JLINK_Go() (0002ms, 0382ms total)
T1670 000:586 JLINK_IsHalted()  returns FALSE (0000ms, 0382ms total)
T1670 000:588 JLINK_IsHalted() -- CPU_ReadMem(2 bytes @ 0x20000000)  returns TRUE (0004ms, 0386ms total)
T1670 000:592 JLINK_ReadReg(R15 (PC))  returns 0x20000000 (0000ms, 0382ms total)
T1670 000:592 JLINK_ClrBPEx(BPHandle = 0x0000000E)  returns 0x00 (0001ms, 0383ms total)
T1670 000:593 JLINK_ReadReg(R0)  returns 0x00000000 (0000ms, 0383ms total)
T1670 000:593 JLINK_WriteReg(R0, 0x08003400)  returns 0x00 (0000ms, 0383ms total)
T1670 000:593 JLINK_WriteReg(R1, 0x00000400)  returns 0x00 (0000ms, 0383ms total)
T1670 000:593 JLINK_WriteReg(R2, 0x000000FF)  returns 0x00 (0000ms, 0383ms total)
T1670 000:593 JLINK_WriteReg(R3, 0x00000000)  returns 0x00 (0000ms, 0383ms total)
T1670 000:593 JLINK_WriteReg(R4, 0x00000000)  returns 0x00 (0000ms, 0383ms total)
T1670 000:593 JLINK_WriteReg(R5, 0x00000000)  returns 0x00 (0000ms, 0383ms total)
T1670 000:593 JLINK_WriteReg(R6, 0x00000000)  returns 0x00 (0000ms, 0383ms total)
T1670 000:593 JLINK_WriteReg(R7, 0x00000000)  returns 0x00 (0000ms, 0383ms total)
T1670 000:593 JLINK_WriteReg(R8, 0x00000000)  returns 0x00 (0000ms, 0383ms total)
T1670 000:593 JLINK_WriteReg(R9, 0x20000160)  returns 0x00 (0000ms, 0383ms total)
T1670 000:593 JLINK_WriteReg(R10, 0x00000000)  returns 0x00 (0000ms, 0383ms total)
T1670 000:593 JLINK_WriteReg(R11, 0x00000000)  returns 0x00 (0000ms, 0383ms total)
T1670 000:593 JLINK_WriteReg(R12, 0x00000000)  returns 0x00 (0000ms, 0383ms total)
T1670 000:593 JLINK_WriteReg(R13 (SP), 0x20001000)  returns 0x00 (0000ms, 0383ms total)
T1670 000:593 JLINK_WriteReg(R14, 0x20000001)  returns 0x00 (0000ms, 0383ms total)
T1670 000:593 JLINK_WriteReg(R15 (PC), 0x20000020)  returns 0x00 (0000ms, 0383ms total)
T1670 000:593 JLINK_WriteReg(XPSR, 0x01000000)  returns 0x00 (0000ms, 0383ms total)
T1670 000:593 JLINK_WriteReg(MSP, 0x20001000)  returns 0x00 (0000ms, 0383ms total)
T1670 000:593 JLINK_WriteReg(PSP, 0x20001000)  returns 0x00 (0000ms, 0383ms total)
T1670 000:593 JLINK_WriteReg(CFBP, 0x00000000)  returns 0x00 (0000ms, 0383ms total)
T1670 000:593 JLINK_SetBPEx(Addr = 0x20000000, Type = 0xFFFFFFF2)  returns 0x0000000F (0000ms, 0383ms total)
T1670 000:593 JLINK_Go() (0002ms, 0385ms total)
T1670 000:595 JLINK_IsHalted()  returns FALSE (0001ms, 0386ms total)
T1670 000:599 JLINK_IsHalted() -- CPU_ReadMem(2 bytes @ 0x20000000)  returns TRUE (0004ms, 0389ms total)
T1670 000:603 JLINK_ReadReg(R15 (PC))  returns 0x20000000 (0000ms, 0385ms total)
T1670 000:603 JLINK_ClrBPEx(BPHandle = 0x0000000F)  returns 0x00 (0001ms, 0386ms total)
T1670 000:604 JLINK_ReadReg(R0)  returns 0x00000000 (0000ms, 0386ms total)
T1670 000:604 JLINK_WriteReg(R0, 0x00000001)  returns 0x00 (0000ms, 0386ms total)
T1670 000:604 JLINK_WriteReg(R1, 0x00000400)  returns 0x00 (0000ms, 0386ms total)
T1670 000:604 JLINK_WriteReg(R2, 0x000000FF)  returns 0x00 (0000ms, 0386ms total)
T1670 000:604 JLINK_WriteReg(R3, 0x00000000)  returns 0x00 (0000ms, 0386ms total)
T1670 000:604 JLINK_WriteReg(R4, 0x00000000)  returns 0x00 (0000ms, 0386ms total)
T1670 000:604 JLINK_WriteReg(R5, 0x00000000)  returns 0x00 (0000ms, 0386ms total)
T1670 000:604 JLINK_WriteReg(R6, 0x00000000)  returns 0x00 (0000ms, 0386ms total)
T1670 000:604 JLINK_WriteReg(R7, 0x00000000)  returns 0x00 (0000ms, 0386ms total)
T1670 000:604 JLINK_WriteReg(R8, 0x00000000)  returns 0x00 (0000ms, 0386ms total)
T1670 000:604 JLINK_WriteReg(R9, 0x20000160)  returns 0x00 (0000ms, 0386ms total)
T1670 000:604 JLINK_WriteReg(R10, 0x00000000)  returns 0x00 (0000ms, 0386ms total)
T1670 000:604 JLINK_WriteReg(R11, 0x00000000)  returns 0x00 (0000ms, 0386ms total)
T1670 000:604 JLINK_WriteReg(R12, 0x00000000)  returns 0x00 (0000ms, 0386ms total)
T1670 000:604 JLINK_WriteReg(R13 (SP), 0x20001000)  returns 0x00 (0000ms, 0386ms total)
T1670 000:604 JLINK_WriteReg(R14, 0x20000001)  returns 0x00 (0000ms, 0386ms total)
T1670 000:604 JLINK_WriteReg(R15 (PC), 0x2000006A)  returns 0x00 (0000ms, 0386ms total)
T1670 000:604 JLINK_WriteReg(XPSR, 0x01000000)  returns 0x00 (0000ms, 0386ms total)
T1670 000:604 JLINK_WriteReg(MSP, 0x20001000)  returns 0x00 (0000ms, 0386ms total)
T1670 000:604 JLINK_WriteReg(PSP, 0x20001000)  returns 0x00 (0000ms, 0386ms total)
T1670 000:604 JLINK_WriteReg(CFBP, 0x00000000)  returns 0x00 (0000ms, 0386ms total)
T1670 000:604 JLINK_SetBPEx(Addr = 0x20000000, Type = 0xFFFFFFF2)  returns 0x00000010 (0000ms, 0386ms total)
T1670 000:604 JLINK_Go() (0002ms, 0388ms total)
T1670 000:606 JLINK_IsHalted() -- CPU_ReadMem(2 bytes @ 0x20000000)  returns TRUE (0005ms, 0393ms total)
T1670 000:611 JLINK_ReadReg(R15 (PC))  returns 0x20000000 (0000ms, 0388ms total)
T1670 000:611 JLINK_ClrBPEx(BPHandle = 0x00000010)  returns 0x00 (0000ms, 0388ms total)
T1670 000:611 JLINK_ReadReg(R0)  returns 0x00000000 (0000ms, 0388ms total)
T1670 000:667 JLINK_WriteMem(0x20000000, 0x0164 Bytes, ...) - Data: 00 BE 0A E0 0D 78 2D 06 68 40 08 24 40 00 00 D3 ... -- CPU_WriteMem(356 bytes @ 0x20000000)  returns 0x164 (0004ms, 0392ms total)
T1670 000:671 JLINK_WriteReg(R0, 0x08000000)  returns 0x00 (0000ms, 0392ms total)
T1670 000:671 JLINK_WriteReg(R1, 0x00B71B00)  returns 0x00 (0000ms, 0392ms total)
T1670 000:671 JLINK_WriteReg(R2, 0x00000002)  returns 0x00 (0000ms, 0392ms total)
T1670 000:671 JLINK_WriteReg(R3, 0x00000000)  returns 0x00 (0000ms, 0392ms total)
T1670 000:671 JLINK_WriteReg(R4, 0x00000000)  returns 0x00 (0000ms, 0392ms total)
T1670 000:671 JLINK_WriteReg(R5, 0x00000000)  returns 0x00 (0000ms, 0392ms total)
T1670 000:671 JLINK_WriteReg(R6, 0x00000000)  returns 0x00 (0000ms, 0392ms total)
T1670 000:671 JLINK_WriteReg(R7, 0x00000000)  returns 0x00 (0000ms, 0392ms total)
T1670 000:671 JLINK_WriteReg(R8, 0x00000000)  returns 0x00 (0000ms, 0392ms total)
T1670 000:671 JLINK_WriteReg(R9, 0x20000160)  returns 0x00 (0000ms, 0392ms total)
T1670 000:671 JLINK_WriteReg(R10, 0x00000000)  returns 0x00 (0000ms, 0392ms total)
T1670 000:671 JLINK_WriteReg(R11, 0x00000000)  returns 0x00 (0000ms, 0392ms total)
T1670 000:671 JLINK_WriteReg(R12, 0x00000000)  returns 0x00 (0000ms, 0392ms total)
T1670 000:671 JLINK_WriteReg(R13 (SP), 0x20001000)  returns 0x00 (0000ms, 0392ms total)
T1670 000:671 JLINK_WriteReg(R14, 0x20000001)  returns 0x00 (0000ms, 0392ms total)
T1670 000:671 JLINK_WriteReg(R15 (PC), 0x20000038)  returns 0x00 (0001ms, 0393ms total)
T1670 000:672 JLINK_WriteReg(XPSR, 0x01000000)  returns 0x00 (0000ms, 0393ms total)
T1670 000:672 JLINK_WriteReg(MSP, 0x20001000)  returns 0x00 (0000ms, 0393ms total)
T1670 000:672 JLINK_WriteReg(PSP, 0x20001000)  returns 0x00 (0000ms, 0393ms total)
T1670 000:672 JLINK_WriteReg(CFBP, 0x00000000)  returns 0x00 (0000ms, 0393ms total)
T1670 000:672 JLINK_SetBPEx(Addr = 0x20000000, Type = 0xFFFFFFF2) -- CPU_ReadMem(2 bytes @ 0x20000000)  returns 0x00000011 (0000ms, 0393ms total)
T1670 000:672 JLINK_Go() -- CPU_WriteMem(2 bytes @ 0x20000000) (0003ms, 0396ms total)
T1670 000:675 JLINK_IsHalted() -- CPU_ReadMem(2 bytes @ 0x20000000)  returns TRUE (0005ms, 0401ms total)
T1670 000:680 JLINK_ReadReg(R15 (PC))  returns 0x20000000 (0000ms, 0396ms total)
T1670 000:680 JLINK_ClrBPEx(BPHandle = 0x00000011)  returns 0x00 (0000ms, 0396ms total)
T1670 000:680 JLINK_ReadReg(R0)  returns 0x00000000 (0000ms, 0396ms total)
T1670 000:680 JLINK_WriteMem(0x20000164, 0x029C Bytes, ...) - Data: C8 06 00 20 C1 0C 00 08 C1 04 00 08 C3 04 00 08 ... -- CPU_WriteMem(668 bytes @ 0x20000164)  returns 0x29C (0007ms, 0403ms total)
T1670 000:687 JLINK_WriteMem(0x20000400, 0x0164 Bytes, ...) - Data: 05 46 21 46 03 F0 88 F8 08 D2 71 48 00 78 28 B1 ... -- CPU_WriteMem(356 bytes @ 0x20000400)  returns 0x164 (0004ms, 0407ms total)
T1670 000:691 JLINK_WriteReg(R0, 0x08000000)  returns 0x00 (0000ms, 0407ms total)
T1670 000:691 JLINK_WriteReg(R1, 0x00000400)  returns 0x00 (0000ms, 0407ms total)
T1670 000:691 JLINK_WriteReg(R2, 0x20000164)  returns 0x00 (0000ms, 0407ms total)
T1670 000:691 JLINK_WriteReg(R3, 0x00000000)  returns 0x00 (0000ms, 0407ms total)
T1670 000:691 JLINK_WriteReg(R4, 0x00000000)  returns 0x00 (0000ms, 0407ms total)
T1670 000:691 JLINK_WriteReg(R5, 0x00000000)  returns 0x00 (0000ms, 0407ms total)
T1670 000:691 JLINK_WriteReg(R6, 0x00000000)  returns 0x00 (0000ms, 0407ms total)
T1670 000:691 JLINK_WriteReg(R7, 0x00000000)  returns 0x00 (0000ms, 0407ms total)
T1670 000:691 JLINK_WriteReg(R8, 0x00000000)  returns 0x00 (0000ms, 0407ms total)
T1670 000:691 JLINK_WriteReg(R9, 0x20000160)  returns 0x00 (0000ms, 0407ms total)
T1670 000:691 JLINK_WriteReg(R10, 0x00000000)  returns 0x00 (0000ms, 0407ms total)
T1670 000:691 JLINK_WriteReg(R11, 0x00000000)  returns 0x00 (0000ms, 0407ms total)
T1670 000:691 JLINK_WriteReg(R12, 0x00000000)  returns 0x00 (0000ms, 0407ms total)
T1670 000:691 JLINK_WriteReg(R13 (SP), 0x20001000)  returns 0x00 (0000ms, 0407ms total)
T1670 000:691 JLINK_WriteReg(R14, 0x20000001)  returns 0x00 (0001ms, 0408ms total)
T1670 000:692 JLINK_WriteReg(R15 (PC), 0x200000F4)  returns 0x00 (0000ms, 0408ms total)
T1670 000:692 JLINK_WriteReg(XPSR, 0x01000000)  returns 0x00 (0000ms, 0408ms total)
T1670 000:692 JLINK_WriteReg(MSP, 0x20001000)  returns 0x00 (0000ms, 0408ms total)
T1670 000:692 JLINK_WriteReg(PSP, 0x20001000)  returns 0x00 (0000ms, 0408ms total)
T1670 000:692 JLINK_WriteReg(CFBP, 0x00000000)  returns 0x00 (0000ms, 0408ms total)
T1670 000:692 JLINK_SetBPEx(Addr = 0x20000000, Type = 0xFFFFFFF2)  returns 0x00000012 (0000ms, 0408ms total)
T1670 000:692 JLINK_Go() (0002ms, 0410ms total)
T1670 000:694 JLINK_IsHalted()  returns FALSE (0000ms, 0410ms total)
T1670 000:698 JLINK_IsHalted()  returns FALSE (0001ms, 0411ms total)
T1670 000:701 JLINK_IsHalted()  returns FALSE (0000ms, 0410ms total)
T1670 000:704 JLINK_IsHalted()  returns FALSE (0000ms, 0410ms total)
T1670 000:706 JLINK_IsHalted()  returns FALSE (0000ms, 0410ms total)
T1670 000:708 JLINK_IsHalted()  returns FALSE (0000ms, 0410ms total)
T1670 000:710 JLINK_IsHalted()  returns FALSE (0000ms, 0410ms total)
T1670 000:712 JLINK_IsHalted()  returns FALSE (0000ms, 0410ms total)
T1670 000:714 JLINK_IsHalted()  returns FALSE (0000ms, 0410ms total)
T1670 000:716 JLINK_IsHalted()  returns FALSE (0000ms, 0410ms total)
T1670 000:718 JLINK_IsHalted()  returns FALSE (0000ms, 0410ms total)
T1670 000:720 JLINK_IsHalted()  returns FALSE (0000ms, 0410ms total)
T1670 000:722 JLINK_IsHalted()  returns FALSE (0000ms, 0410ms total)
T1670 000:724 JLINK_IsHalted()  returns FALSE (0000ms, 0410ms total)
T1670 000:726 JLINK_IsHalted() -- CPU_ReadMem(2 bytes @ 0x20000000)  returns TRUE (0005ms, 0415ms total)
T1670 000:731 JLINK_ReadReg(R15 (PC))  returns 0x20000000 (0000ms, 0410ms total)
T1670 000:731 JLINK_ClrBPEx(BPHandle = 0x00000012)  returns 0x00 (0000ms, 0410ms total)
T1670 000:731 JLINK_ReadReg(R0)  returns 0x00000000 (0000ms, 0410ms total)
T1670 000:732 JLINK_WriteMem(0x20000164, 0x029C Bytes, ...) - Data: 02 F0 D8 FE 06 D2 19 48 00 78 18 B1 15 48 00 78 ... -- CPU_WriteMem(668 bytes @ 0x20000164)  returns 0x29C (0007ms, 0417ms total)
T1670 000:739 JLINK_WriteMem(0x20000400, 0x0164 Bytes, ...) - Data: 00 20 02 40 00 00 FF F8 FF FF F6 FE 08 ED 00 E0 ... -- CPU_WriteMem(356 bytes @ 0x20000400)  returns 0x164 (0004ms, 0421ms total)
T1670 000:743 JLINK_WriteReg(R0, 0x08000400)  returns 0x00 (0000ms, 0421ms total)
T1670 000:743 JLINK_WriteReg(R1, 0x00000400)  returns 0x00 (0000ms, 0421ms total)
T1670 000:743 JLINK_WriteReg(R2, 0x20000164)  returns 0x00 (0000ms, 0421ms total)
